Using: /programs/synopsys/hspice/current/hspice/linux64/hspice sampleV.spice
 ****** PrimeSim HSPICE -- R-2020.12-SP1 linux64 (Apr 10 2021 6983340) ******
  Copyright (c) 1986 - 2021 by Synopsys, Inc. All Rights Reserved.
  This software and the associated documentation are proprietary
  to Synopsys, Inc. This software may only be used in accordance
  with the terms and conditions of a written license agreement with
  Synopsys, Inc. All other use, reproduction, or distribution of
  this software is strictly prohibited.
  Input File: sampleV.spice                                                     
  Command line options: /programs/synopsys/hspice/current/hspice/linux64/hspice sampleV.spice
  Start time: Thu Dec  9 09:23:40 2021
 lic:  
 lic: FLEXlm: SDK_12.9.5 
 lic: USER:   jstine               HOSTNAME: rivendell.ecen.okstate.edu 
 lic: HOSTID: "2c44fd862b18"       PID:      28004 
 lic: Using FLEXlm license file: 
 lic: 27020@trelaina.ecen.okstate.edu 
 lic: Checkout 1 hspice 
 lic: License/Maintenance for hspice will expire on 27-jan-2022/2020.12 
 lic: 1(in_use)/50(total) FLOATING license(s) on SERVER 27020@trelaina.ecen.okstate.edu 
 lic:   
  **warning** (sampleV.spice:6) Both nodes of element vgnd are connected together; Line ignored.
  **info** (sampleV.spice:12) DC voltage reset to initial transient source value in source 0:vrwl0. new dc=0.0000D+00
  **warning** (sampleV.spice:17) Unable to find referenced node wwl; Output variable ignored. Specify a valid node.
  

  **warning** the following singular supplies were terminated to 1 meg resistor 
          supply       node1            node2
(sampleV.spice:12)vrwl0                   0:rwl0             defined in subckt 0                     0:0                defined in subckt 0               
(sampleV.spice:13)vrwl1                   0:rwl1             defined in subckt 0                     0:0                defined in subckt 0               
(sampleV.spice:5)vvdd                    0:vdd              defined in subckt 0                     0:0                defined in subckt 0               
(sampleV.spice:8)vwwl                    0:vwl              defined in subckt 0                     0:0                defined in subckt 0               
(sampleV.spice:9)vwbl                    0:wbl              defined in subckt 0                     0:0                defined in subckt 0               
(sampleV.spice:10)vwblb                   0:wblb             defined in subckt 0                     0:0                defined in subckt 0               
      
 *****************************************************************
 ******  option summary
 ******
 runlvl  = 3         bypass  = 2.0000    
 **info** dc convergence successful at Newton-Raphson method 
1****** PrimeSim HSPICE -- R-2020.12-SP1 linux64 (Apr 10 2021 6983340) ******
 ******  
 .include '/home/tdene/public/skywater-src-nda/s8_spice_models/models.all'

 ****** operating point information tnom=  25.000 temp=  25.000 ******
 ****** operating point status is all       simulation time is     0.     
    node    =voltage      node    =voltage      node    =voltage

 +0:rwl0    =   0.      0:rwl1    =   0.      0:vdd     =   1.8000 
 +0:vwl     =   0.      0:wbl     =   0.      0:wblb    =   1.8000 


 maximum nodal capacitance=    0.00             on node     0:0               

    nodal  capacitance table 

    node    =    cap      node    =    cap      node    =    cap

 +0:rwl0    =   0.      0:rwl1    =   0.      0:vdd     =   0.     
 +0:vwl     =   0.      0:wbl     =   0.      0:wblb    =   0.     

 

 **** voltage sources

 subckt                                                                    
 element  0:vrwl0    0:vrwl1    0:vvdd     0:vwbl     0:vwblb    0:vwwl    
  volts      0.         0.         1.8000     0.         1.8000     0.     
  current    0.         0.        -1.8000u    0.        -1.8000u    0.     
  power      0.         0.         3.2400u    0.         3.2400u    0.     

     total voltage source power dissipation=    6.4800u       watts


 ******
 .include '/home/tdene/public/skywater-src-nda/s8_spice_models/models.all'

 ****** transient analysis tnom=  25.000 temp=  25.000 ******
x

 time         voltage    voltage    voltage   
             vwl        rwl0       rwl1       
    0.          0.         0.         0.      
    1.00000n    0.         0.         0.      
    2.00000n    0.         0.         0.      
    3.00000n    0.         0.         0.      
    4.00000n    0.         0.         0.      
    5.00000n    0.         0.         0.      
    6.00000n    1.8000     0.         0.      
    7.00000n    1.8000     0.         0.      
    8.00000n    1.8000     0.         0.      
    9.00000n    1.8000     0.         0.      
   10.00000n    1.8000     0.         0.      
   11.00000n    0.         0.         0.      
   12.00000n    0.         0.         0.      
   13.00000n    0.         0.         0.      
   14.00000n    0.         0.         0.      
   15.00000n    0.         0.         0.      
   16.00000n    0.         1.8000     0.      
   17.00000n    0.         1.8000     0.      
   18.00000n    0.         1.8000     0.      
   19.00000n    0.         1.8000     0.      
   20.00000n    0.         1.8000     0.      
   21.00000n    0.         0.         0.      
   22.00000n    0.         0.         0.      
   23.00000n    0.         0.         0.      
   24.00000n    0.         0.         0.      
   25.00000n    0.         0.         0.      
   26.00000n    0.         0.         0.      
   27.00000n    0.         0.         0.      
   28.00000n    0.         0.         0.      
   29.00000n    0.         0.         0.      
   30.00000n    0.         0.         0.      
   31.00000n    0.         0.         0.      
   32.00000n    0.         0.         0.      
   33.00000n    0.         0.         0.      
   34.00000n    0.         0.         0.      
   35.00000n    0.         0.         0.      
   36.00000n    0.         0.         0.      
   37.00000n    0.         0.         0.      
   38.00000n    0.         0.         0.      
   39.00000n    0.         0.         0.      
   40.00000n    0.         0.         0.      
   41.00000n    0.         0.         0.      
   42.00000n    0.         0.         0.      
   43.00000n    0.         0.         0.      
   44.00000n    0.         0.         0.      
   45.00000n    0.         0.         0.      
y

          ***** job concluded
 ******  
 .include '/home/tdene/public/skywater-src-nda/s8_spice_models/models.all'

 ****** job statistics summary tnom=  25.000 temp=  25.000 ******
  
 ******  Machine Information  ******
 CPU:
 model name	: Intel(R) Xeon(R) CPU E5-4617 0 @ 2.90GHz
 cpu MHz	: 2900.000
 CPU(s)		: 12
  
 OS:
 Linux version 3.10.0-1160.42.2.el7.x86_64 (mockbuild@x86-vm-40.build.eng.bos.redhat.com) (gcc version 4.8.5 20150623 (Red Hat 4.8.5-44) (GCC) ) #1 SMP Tue Aug 31 20:15:00 UTC 2021

 System loadavg : 21.77 10.20 4.62 30/3774 28015


  ******  HSPICE Threads Information  ******

  Command Line Threads Count :     1
  Available CPU Count        :    12
  Actual Threads Count       :     1


  ****** Statistics of Ignored Elements ******
  Voltage Sources :       1

  ******  Circuit Statistics  ******
  # nodes       =       7 # elements   =      12
  # resistors   =       6 # capacitors =       0 # inductors   =       0
  # mutual_inds =       0 # vccs       =       0 # vcvs        =       0
  # cccs        =       0 # ccvs       =       0 # volt_srcs   =       6
  # curr_srcs   =       0 # diodes     =       0 # bjts        =       0
  # jfets       =       0 # mosfets    =       0 # U elements  =       0
  # T elements  =       0 # W elements =       0 # B elements  =       0
  # S elements  =       0 # P elements =       0 # va device   =       0
  # vector_srcs =       0 # N elements =       0


  ******  Runtime Statistics (seconds)  ******

  analysis           time    # points   tot. iter  conv.iter
  op point           0.08           1           1
  transient          0.00          46          58          29 rev=         0
  readin             0.44
  errchk             0.00
  setup              0.00
  output             0.00


           peak memory used        632.89 megabytes
           total cpu time            0.54 seconds
           total elapsed time        0.65 seconds
           job started at     09:23:40 12/09/2021
           job ended   at     09:23:41 12/09/2021

>info:         ***** hspice job concluded
           job total runtime         0.65 seconds


 lic: Release hspice token(s) 
 lic: total license checkout elapse time:        0.09(s)
